
T34C0 001:169 SEGGER J-Link V6.10i Log File (0001ms, 1137ms total)
T34C0 001:169 DLL Compiled: Oct 25 2016 19:31:51 (0001ms, 1137ms total)
T34C0 001:169 Logging started @ 2017-11-03 01:28 (0001ms, 1137ms total)
T34C0 001:170 JLINK_SetWarnOutHandler(...) (0000ms, 1137ms total)
T34C0 001:170 JLINK_OpenEx(...)
Firmware: J-Link V9 compiled Mar 15 2016 18:03:32
Hardware: V9.40
S/N: 59400008
Feature(s): GDB, RDI, FlashBP, FlashDL, JFlashWEBSRV Webserver running on local port 19080 (0592ms, 1729ms total)
T34C0 001:170   returns O.K. (0592ms, 1729ms total)
T34C0 001:762 JLINK_SetErrorOutHandler(...) (0000ms, 1729ms total)
T34C0 001:762 JLINK_ExecCommand("ProjectFile = "C:\tmp\YSF4_HAL-002. GPIO-Á÷Ë®µÆ\MDK-ARM\JLinkSettings.ini"", ...).   returns 0x00 (0210ms, 1939ms total)
T34C0 001:972 JLINK_ExecCommand("Device = STM32F407IGTx", ...). Device "STM32F407IG" selected.  returns 0x00 (0002ms, 1941ms total)
T34C0 001:974 JLINK_ExecCommand("DisableConnectionTimeout", ...).   returns 0x01 (0000ms, 1941ms total)
T34C0 001:974 JLINK_GetHardwareVersion()  returns 0x16F30 (0000ms, 1941ms total)
T34C0 001:974 JLINK_GetDLLVersion()  returns 61009 (0000ms, 1941ms total)
T34C0 001:974 JLINK_GetFirmwareString(...) (0000ms, 1941ms total)
T34C0 001:974 JLINK_GetDLLVersion()  returns 61009 (0000ms, 1941ms total)
T34C0 001:974 JLINK_GetCompileDateTime() (0000ms, 1941ms total)
T34C0 001:974 JLINK_GetFirmwareString(...) (0000ms, 1941ms total)
T34C0 001:974 JLINK_GetHardwareVersion()  returns 0x16F30 (0000ms, 1941ms total)
T34C0 001:974 JLINK_TIF_Select(JLINKARM_TIF_SWD)  returns 0x00 (0015ms, 1956ms total)
T34C0 001:989 JLINK_SetSpeed(5000) (0002ms, 1958ms total)
T34C0 001:991 JLINK_GetId() >0x108 TIF>Found SWD-DP with ID 0x2BA01477 >0x0D TIF> >0x28 TIF> >0x0D TIF> >0x28 TIF> >0x0D TIF> >0x28 TIF> >0x0D TIF> >0x28 TIF> >0x0D TIF> >0x21 TIF> >0x0D TIF> >0x28 TIF> >0x0D TIF> >0x28 TIF> >0x0D TIF> >0x28 TIF> >0x0D TIF> >0x21 TIF> >0x0D TIF> >0x21 TIF> >0x0D TIF> >0x28 TIF> >0x0D TIF> >0x21 TIF> >0x0D TIF> >0x21 TIF> >0x0D TIF> >0x28 TIF> >0x0D TIF> >0x21 TIF> >0x0D TIF> >0x21 TIF> >0x0D TIF> >0x28 TIF> >0x0D TIF> >0x21 TIF> >0x0D TIF> >0x21 TIF> >0x0D TIF>
 >0x28 TIF> >0x0D TIF> >0x21 TIF> >0x0D TIF> >0x21 TIF> >0x0D TIF> >0x28 TIF> >0x0D TIF> >0x21 TIF> >0x0D TIF> >0x21 TIF> >0x108 TIF>Found SWD-DP with ID 0x2BA01477 >0x0D TIF> >0x28 TIF> >0x0D TIF> >0x28 TIF> >0x0D TIF> >0x28 TIF> >0x0D TIF> >0x28 TIF> >0x0D TIF> >0x21 TIF> >0x0D TIF> >0x28 TIF> >0x0D TIF> >0x28 TIF> >0x0D TIF> >0x21 TIF> >0x0D TIF> >0x21 TIF> >0x0D TIF> >0x21 TIF>AP-IDR: 0x24770011, Type: AHB-AP >0x0D TIF> >0x28 TIF> >0x0D TIF> >0x28 TIF> >0x0D TIF> >0x28 TIF> >0x0D TIF> >0x21 TIF>
 >0x0D TIF> >0x21 TIF> >0x0D TIF> >0x28 TIF> >0x0D TIF> >0x21 TIF> >0x0D TIF> >0x21 TIF>Found Cortex-M4 r0p1, Little endian. -- CPU_ReadMem(4 bytes @ 0xE000EDF0) -- CPU_ReadMem(4 bytes @ 0xE0002000)FPUnit: 6 code (BP) slots and 2 literal slots -- CPU_ReadMem(4 bytes @ 0xE000EDFC) -- CPU_WriteMem(4 bytes @ 0xE000EDFC) -- CPU_ReadMem(4 bytes @ 0xE0001000) -- CPU_WriteMem(4 bytes @ 0xE0001000) -- CPU_ReadMem(4 bytes @ 0xE000ED88) -- CPU_WriteMem(4 bytes @ 0xE000ED88) -- CPU_ReadMem(4 bytes @ 0xE000ED88)
 -- CPU_WriteMem(4 bytes @ 0xE000ED88)CoreSight components:ROMTbl 0 @ E00FF000 -- CPU_ReadMem(16 bytes @ 0xE00FF000) -- CPU_ReadMem(16 bytes @ 0xE000EFF0) -- CPU_ReadMem(16 bytes @ 0xE000EFE0)ROMTbl 0 [0]: FFF0F000, CID: B105E00D, PID: 000BB00C SCS -- CPU_ReadMem(16 bytes @ 0xE0001FF0) -- CPU_ReadMem(16 bytes @ 0xE0001FE0)ROMTbl 0 [1]: FFF02000, CID: B105E00D, PID: 003BB002 DWT -- CPU_ReadMem(16 bytes @ 0xE0002FF0) -- CPU_ReadMem(16 bytes @ 0xE0002FE0)
ROMTbl 0 [2]: FFF03000, CID: B105E00D, PID: 002BB003 FPB -- CPU_ReadMem(16 bytes @ 0xE0000FF0) -- CPU_ReadMem(16 bytes @ 0xE0000FE0)ROMTbl 0 [3]: FFF01000, CID: B105E00D, PID: 003BB001 ITM -- CPU_ReadMem(16 bytes @ 0xE00FF010) -- CPU_ReadMem(16 bytes @ 0xE0040FF0) -- CPU_ReadMem(16 bytes @ 0xE0040FE0)ROMTbl 0 [4]: FFF41000, CID: B105900D, PID: 000BB9A1 TPIU -- CPU_ReadMem(16 bytes @ 0xE0041FF0) -- CPU_ReadMem(16 bytes @ 0xE0041FE0)ROMTbl 0 [5]: FFF42000, CID: B105900D, PID: 000BB925 ETM >0x0D TIF>
 >0x21 TIF>  returns 0x2BA01477 (0393ms, 2351ms total)
T34C0 002:384 JLINK_GetDLLVersion()  returns 61009 (0000ms, 2351ms total)
T34C0 002:384 JLINK_CORE_GetFound()  returns 0xE0000FF (0000ms, 2351ms total)
T34C0 002:384 JLINK_GetDebugInfo(0x100) -- Value=0xE00FF000  returns 0x00 (0000ms, 2351ms total)
T34C0 002:384 JLINK_GetDebugInfo(0x100) -- Value=0xE00FF000  returns 0x00 (0000ms, 2351ms total)
T34C0 002:384 JLINK_GetDebugInfo(0x101) -- Value=0xE0041000  returns 0x00 (0000ms, 2351ms total)
T34C0 002:384 JLINK_GetDebugInfo(0x102) -- Value=0x00000000  returns 0x00 (0000ms, 2351ms total)
T34C0 002:384 JLINK_GetDebugInfo(0x103) -- Value=0xE0040000  returns 0x00 (0000ms, 2351ms total)
T34C0 002:384 JLINK_GetDebugInfo(0x104) -- Value=0xE0000000  returns 0x00 (0000ms, 2351ms total)
T34C0 002:384 JLINK_GetDebugInfo(0x105) -- Value=0xE0001000  returns 0x00 (0000ms, 2351ms total)
T34C0 002:384 JLINK_GetDebugInfo(0x106) -- Value=0xE0002000  returns 0x00 (0000ms, 2351ms total)
T34C0 002:384 JLINK_GetDebugInfo(0x107) -- Value=0xE000E000  returns 0x00 (0000ms, 2351ms total)
T34C0 002:384 JLINK_GetDebugInfo(0x10C) -- Value=0xE000EDF0  returns 0x00 (0000ms, 2351ms total)
T34C0 002:384 JLINK_ReadMemU32(0xE000EF40, 0x0001 Items, ...) -- CPU is running -- CPU_ReadMem(4 bytes @ 0xE000EF40) - Data: 21 00 11 10  returns 0x01 (0001ms, 2352ms total)
T34C0 002:385 JLINK_ReadMemU32(0xE000EF44, 0x0001 Items, ...) -- CPU is running -- CPU_ReadMem(4 bytes @ 0xE000EF44) - Data: 11 00 00 11  returns 0x01 (0005ms, 2357ms total)
T34C0 002:390 JLINK_ReadMemU32(0xE000ED00, 0x0001 Items, ...) -- CPU is running -- CPU_ReadMem(4 bytes @ 0xE000ED00) - Data: 41 C2 0F 41  returns 0x01 (0004ms, 2361ms total)
T34C0 002:394 JLINK_SetResetType(JLINKARM_RESET_TYPE_NORMAL)  returns JLINKARM_RESET_TYPE_NORMAL (0000ms, 2361ms total)
T34C0 002:394 JLINK_Reset() -- CPU is running -- CPU_WriteMem(4 bytes @ 0xE000EDF0) -- CPU is running -- CPU_WriteMem(4 bytes @ 0xE000EDFC) >0x35 TIF> -- CPU is running -- CPU_WriteMem(4 bytes @ 0xE000ED0C) -- CPU is running -- CPU_ReadMem(4 bytes @ 0xE000EDF0) -- CPU is running -- CPU_ReadMem(4 bytes @ 0xE000EDF0) -- CPU is running -- CPU_WriteMem(4 bytes @ 0xE000EDF0) -- CPU is running -- CPU_WriteMem(4 bytes @ 0xE000EDFC) -- CPU is running -- CPU_ReadMem(4 bytes @ 0xE000EDF0)
 -- CPU_WriteMem(4 bytes @ 0xE0002000) -- CPU_ReadMem(4 bytes @ 0xE000EDFC) -- CPU_ReadMem(4 bytes @ 0xE0001000) (0051ms, 2412ms total)
T34C0 002:445 JLINK_ReadReg(R15 (PC))  returns 0x0800019C (0000ms, 2412ms total)
T34C0 002:445 JLINK_ReadReg(XPSR)  returns 0x01000000 (0000ms, 2412ms total)
T34C0 002:445 JLINK_Halt()  returns 0x00 (0000ms, 2412ms total)
T34C0 002:445 JLINK_IsHalted()  returns TRUE (0000ms, 2412ms total)
T34C0 002:445 JLINK_ReadMemU32(0xE000EDF0, 0x0001 Items, ...) -- CPU_ReadMem(4 bytes @ 0xE000EDF0) - Data: 03 00 03 00  returns 0x01 (0005ms, 2417ms total)
T34C0 002:450 JLINK_WriteU32(0xE000EDF0, 0xA05F0003) -- CPU_WriteMem(4 bytes @ 0xE000EDF0)  returns 0x00 (0004ms, 2421ms total)
T34C0 002:454 JLINK_WriteU32(0xE000EDFC, 0x01000000) -- CPU_WriteMem(4 bytes @ 0xE000EDFC)  returns 0x00 (0004ms, 2425ms total)
T34C0 002:458 JLINK_GetHWStatus(...)  returns 0x00 (0003ms, 2428ms total)
T34C0 002:461 JLINK_GetNumBPUnits(Type = 0xFFFFFF00)  returns 0x06 (0000ms, 2428ms total)
T34C0 002:461 JLINK_GetNumBPUnits(Type = 0xF0)  returns 0x2000 (0000ms, 2428ms total)
T34C0 002:461 JLINK_GetNumWPUnits()  returns 0x04 (0000ms, 2428ms total)
T34C0 002:461 JLINK_GetSpeed()  returns 0xFA0 (0001ms, 2429ms total)
T34C0 002:462 JLINK_ReadMemU32(0xE000E004, 0x0001 Items, ...) -- CPU_ReadMem(4 bytes @ 0xE000E004) - Data: 02 00 00 00  returns 0x01 (0003ms, 2432ms total)
T34C0 002:465 JLINK_ReadMemU32(0xE000E004, 0x0001 Items, ...) -- CPU_ReadMem(4 bytes @ 0xE000E004) - Data: 02 00 00 00  returns 0x01 (0004ms, 2436ms total)
T34C0 002:469 JLINK_WriteMem(0xE0001000, 0x001C Bytes, ...) - Data: 01 00 00 00 00 00 00 00 00 00 00 00 00 00 00 00 ... -- CPU_WriteMem(28 bytes @ 0xE0001000)  returns 0x1C (0003ms, 2439ms total)
T34C0 002:472 JLINK_ReadMem (0xE0001000, 0x001C Bytes, ...) -- CPU_ReadMem(28 bytes @ 0xE0001000) - Data: 01 00 00 40 00 00 00 00 00 00 00 00 00 00 00 00 ...  returns 0x00 (0004ms, 2443ms total)
T34C0 002:476 JLINK_ReadReg(R15 (PC))  returns 0x0800019C (0000ms, 2443ms total)
T34C0 002:476 JLINK_ReadReg(XPSR)  returns 0x01000000 (0000ms, 2443ms total)
T34C0 002:618 JLINK_SetResetType(JLINKARM_RESET_TYPE_NORMAL)  returns JLINKARM_RESET_TYPE_NORMAL (0000ms, 2443ms total)
T34C0 002:618 JLINK_Reset() -- CPU_WriteMem(4 bytes @ 0xE000EDF0) -- CPU_WriteMem(4 bytes @ 0xE000EDFC) >0x35 TIF> -- CPU_WriteMem(4 bytes @ 0xE000ED0C) -- CPU_ReadMem(4 bytes @ 0xE000EDF0) -- CPU_ReadMem(4 bytes @ 0xE000EDF0) -- CPU_WriteMem(4 bytes @ 0xE000EDF0) -- CPU_WriteMem(4 bytes @ 0xE000EDFC) -- CPU is running -- CPU_ReadMem(4 bytes @ 0xE000EDF0) -- CPU_WriteMem(4 bytes @ 0xE0002000) -- CPU_ReadMem(4 bytes @ 0xE000EDFC) -- CPU_ReadMem(4 bytes @ 0xE0001000) (0058ms, 2501ms total)
T34C0 002:676 JLINK_ReadReg(R15 (PC))  returns 0x0800019C (0000ms, 2501ms total)
T34C0 002:676 JLINK_ReadReg(XPSR)  returns 0x01000000 (0000ms, 2501ms total)
T34C0 002:680 JLINK_ReadMem (0x08000188, 0x003C Bytes, ...) -- CPU_ReadMem(128 bytes @ 0x08000180) -- Updating C cache (128 bytes @ 0x08000180) -- Read from C cache (60 bytes @ 0x08000188) - Data: DF F8 0C D0 00 F0 18 F8 00 48 00 47 69 0F 00 08 ...  returns 0x00 (0004ms, 2505ms total)
T2110 005:321 JLINK_SetBPEx(Addr = 0x08000F68, Type = 0xFFFFFFF2)  returns 0x00000001 (0000ms, 2505ms total)
T2110 005:321 JLINK_Go() -- CPU_WriteMem(4 bytes @ 0xE0002000) -- CPU_ReadMem(4 bytes @ 0xE0001000) -- CPU_WriteMem(4 bytes @ 0xE0002008) -- CPU_WriteMem(4 bytes @ 0xE000200C) -- CPU_WriteMem(4 bytes @ 0xE0002010) -- CPU_WriteMem(4 bytes @ 0xE0002014) -- CPU_WriteMem(4 bytes @ 0xE0002018) -- CPU_WriteMem(4 bytes @ 0xE000201C) -- CPU_WriteMem(4 bytes @ 0xE0001004) (0018ms, 2523ms total)
T2110 005:440 JLINK_IsHalted()  returns TRUE (0013ms, 2536ms total)
T2110 005:453 JLINK_Halt()  returns 0x00 (0000ms, 2523ms total)
T2110 005:453 JLINK_IsHalted()  returns TRUE (0000ms, 2523ms total)
T2110 005:453 JLINK_IsHalted()  returns TRUE (0000ms, 2523ms total)
T2110 005:453 JLINK_IsHalted()  returns TRUE (0000ms, 2523ms total)
T2110 005:453 JLINK_ReadReg(R15 (PC))  returns 0x08000F68 (0000ms, 2523ms total)
T2110 005:453 JLINK_ReadReg(XPSR)  returns 0x61000000 (0000ms, 2523ms total)
T2110 005:453 JLINK_ClrBPEx(BPHandle = 0x00000001)  returns 0x00 (0000ms, 2523ms total)
T2110 005:453 JLINK_ReadMemU32(0xE000ED30, 0x0001 Items, ...) -- CPU_ReadMem(4 bytes @ 0xE000ED30) - Data: 02 00 00 00  returns 0x01 (0004ms, 2527ms total)
T2110 005:457 JLINK_ReadMemU32(0xE0001028, 0x0001 Items, ...) -- CPU_ReadMem(4 bytes @ 0xE0001028) - Data: 00 00 00 00  returns 0x01 (0005ms, 2532ms total)
T2110 005:462 JLINK_ReadMemU32(0xE0001038, 0x0001 Items, ...) -- CPU_ReadMem(4 bytes @ 0xE0001038) - Data: 00 02 00 00  returns 0x01 (0001ms, 2533ms total)
T2110 005:463 JLINK_ReadMemU32(0xE0001048, 0x0001 Items, ...) -- CPU_ReadMem(4 bytes @ 0xE0001048) - Data: 00 00 00 00  returns 0x01 (0004ms, 2537ms total)
T2110 005:467 JLINK_ReadMemU32(0xE0001058, 0x0001 Items, ...) -- CPU_ReadMem(4 bytes @ 0xE0001058) - Data: 00 00 00 00  returns 0x01 (0002ms, 2539ms total)
T2110 005:469 JLINK_ReadReg(R0)  returns 0x08000F69 (0000ms, 2539ms total)
T2110 005:469 JLINK_ReadReg(R1)  returns 0x20001008 (0000ms, 2539ms total)
T2110 005:469 JLINK_ReadReg(R2)  returns 0x00000000 (0000ms, 2539ms total)
T2110 005:469 JLINK_ReadReg(R3)  returns 0x08000F5B (0000ms, 2539ms total)
T2110 005:469 JLINK_ReadReg(R4)  returns 0x0800106C (0000ms, 2539ms total)
T2110 005:469 JLINK_ReadReg(R5)  returns 0x0800106C (0000ms, 2539ms total)
T2110 005:469 JLINK_ReadReg(R6)  returns 0x00000000 (0000ms, 2539ms total)
T2110 005:469 JLINK_ReadReg(R7)  returns 0x00000000 (0000ms, 2539ms total)
T2110 005:469 JLINK_ReadReg(R8)  returns 0x00000000 (0000ms, 2539ms total)
T2110 005:469 JLINK_ReadReg(R9)  returns 0x00000000 (0000ms, 2539ms total)
T2110 005:469 JLINK_ReadReg(R10)  returns 0x00000000 (0000ms, 2539ms total)
T2110 005:470 JLINK_ReadReg(R11)  returns 0x00000000 (0000ms, 2539ms total)
T2110 005:470 JLINK_ReadReg(R12)  returns 0x00000000 (0000ms, 2539ms total)
T2110 005:470 JLINK_ReadReg(R13 (SP))  returns 0x20001008 (0000ms, 2539ms total)
T2110 005:470 JLINK_ReadReg(R14)  returns 0x080001DD (0000ms, 2539ms total)
T2110 005:470 JLINK_ReadReg(R15 (PC))  returns 0x08000F68 (0000ms, 2539ms total)
T2110 005:470 JLINK_ReadReg(XPSR)  returns 0x61000000 (0000ms, 2539ms total)
T2110 005:470 JLINK_ReadReg(MSP)  returns 0x20001008 (0000ms, 2539ms total)
T2110 005:470 JLINK_ReadReg(PSP)  returns 0x00000000 (0000ms, 2539ms total)
T2110 005:470 JLINK_ReadReg(CFBP)  returns 0x00000000 (0000ms, 2539ms total)
T2110 005:470 JLINK_ReadReg(FPSCR)  returns 0x00000000 (0007ms, 2546ms total)
T2110 005:477 JLINK_ReadReg(FPS0)  returns 0x00000000 (0000ms, 2546ms total)
T2110 005:477 JLINK_ReadReg(FPS1)  returns 0x00000000 (0000ms, 2546ms total)
T2110 005:477 JLINK_ReadReg(FPS2)  returns 0x00000000 (0000ms, 2546ms total)
T2110 005:477 JLINK_ReadReg(FPS3)  returns 0x00000000 (0000ms, 2546ms total)
T2110 005:477 JLINK_ReadReg(FPS4)  returns 0x00000000 (0000ms, 2546ms total)
T2110 005:477 JLINK_ReadReg(FPS5)  returns 0x00000000 (0000ms, 2546ms total)
T2110 005:477 JLINK_ReadReg(FPS6)  returns 0x00000000 (0000ms, 2546ms total)
T2110 005:477 JLINK_ReadReg(FPS7)  returns 0x00000000 (0000ms, 2546ms total)
T2110 005:477 JLINK_ReadReg(FPS8)  returns 0x00000000 (0000ms, 2546ms total)
T2110 005:477 JLINK_ReadReg(FPS9)  returns 0x00000000 (0000ms, 2546ms total)
T2110 005:477 JLINK_ReadReg(FPS10)  returns 0x00000000 (0000ms, 2546ms total)
T2110 005:477 JLINK_ReadReg(FPS11)  returns 0x00000000 (0000ms, 2546ms total)
T2110 005:477 JLINK_ReadReg(FPS12)  returns 0x00000000 (0000ms, 2546ms total)
T2110 005:477 JLINK_ReadReg(FPS13)  returns 0x00000000 (0000ms, 2546ms total)
T2110 005:477 JLINK_ReadReg(FPS14)  returns 0x00000000 (0000ms, 2546ms total)
T2110 005:477 JLINK_ReadReg(FPS15)  returns 0x00000000 (0000ms, 2546ms total)
T2110 005:477 JLINK_ReadReg(FPS16)  returns 0x00000000 (0000ms, 2546ms total)
T2110 005:477 JLINK_ReadReg(FPS17)  returns 0x00000000 (0000ms, 2546ms total)
T2110 005:477 JLINK_ReadReg(FPS18)  returns 0x00000000 (0000ms, 2546ms total)
T2110 005:477 JLINK_ReadReg(FPS19)  returns 0x00000000 (0000ms, 2546ms total)
T2110 005:477 JLINK_ReadReg(FPS20)  returns 0x00000000 (0001ms, 2547ms total)
T2110 005:478 JLINK_ReadReg(FPS21)  returns 0x00000000 (0000ms, 2547ms total)
T2110 005:478 JLINK_ReadReg(FPS22)  returns 0x00000000 (0000ms, 2547ms total)
T2110 005:478 JLINK_ReadReg(FPS23)  returns 0x00000000 (0000ms, 2547ms total)
T2110 005:478 JLINK_ReadReg(FPS24)  returns 0x00000000 (0000ms, 2547ms total)
T2110 005:478 JLINK_ReadReg(FPS25)  returns 0x00000000 (0000ms, 2547ms total)
T2110 005:478 JLINK_ReadReg(FPS26)  returns 0x00000000 (0000ms, 2547ms total)
T2110 005:478 JLINK_ReadReg(FPS27)  returns 0x00000000 (0000ms, 2547ms total)
T2110 005:478 JLINK_ReadReg(FPS28)  returns 0x00000000 (0000ms, 2547ms total)
T2110 005:478 JLINK_ReadReg(FPS29)  returns 0x00000000 (0000ms, 2547ms total)
T2110 005:478 JLINK_ReadReg(FPS30)  returns 0x00000000 (0000ms, 2547ms total)
T2110 005:478 JLINK_ReadReg(FPS31)  returns 0x00000000 (0000ms, 2547ms total)
T34C0 005:544 JLINK_ReadMem (0x00000000, 0x0001 Bytes, ...) -- CPU_ReadMem(4 bytes @ 0x00000004) -- CPU_ReadMem(64 bytes @ 0x08000000) -- Updating C cache (64 bytes @ 0x08000000) -- Read from C cache (1 bytes @ 0x08000000) - Data: 08  returns 0x00 (0008ms, 2555ms total)
T34C0 005:560 JLINK_ReadMemU32(0xE0001004, 0x0001 Items, ...) -- CPU_ReadMem(4 bytes @ 0xE0001004) - Data: 87 18 00 00  returns 0x01 (0004ms, 2559ms total)
T34C0 005:566 JLINK_ReadMem (0x08000E68, 0x003C Bytes, ...) -- CPU_ReadMem(128 bytes @ 0x08000E40) -- Updating C cache (128 bytes @ 0x08000E40) -- Read from C cache (60 bytes @ 0x08000E68) - Data: 80 50 00 90 1F 48 01 68 41 F4 80 41 01 60 00 68 ...  returns 0x00 (0003ms, 2562ms total)
T34C0 005:569 JLINK_ReadMem (0x08000EA4, 0x003C Bytes, ...) -- CPU_ReadMem(64 bytes @ 0x08000EC0) -- Updating C cache (64 bytes @ 0x08000EC0) -- Read from C cache (60 bytes @ 0x08000EA4) - Data: 0F 20 01 90 02 94 03 95 4F F4 A0 50 04 90 E0 02 ...  returns 0x00 (0003ms, 2565ms total)
T34C0 005:572 JLINK_ReadMem (0x08000EE0, 0x003C Bytes, ...) -- CPU_ReadMem(64 bytes @ 0x08000F00) -- Updating C cache (64 bytes @ 0x08000F00) -- Read from C cache (60 bytes @ 0x08000EE0) - Data: 29 FB 13 B0 30 BD 00 00 40 38 02 40 00 70 00 40 ...  returns 0x00 (0003ms, 2568ms total)
T34C0 005:575 JLINK_ReadMem (0x08000F1C, 0x003C Bytes, ...) -- CPU_ReadMem(64 bytes @ 0x08000F40) -- Updating C cache (64 bytes @ 0x08000F40) -- Read from C cache (60 bytes @ 0x08000F1C) - Data: 02 68 22 F4 80 22 02 60 06 48 01 60 06 49 58 06 ...  returns 0x00 (0004ms, 2572ms total)
T34C0 005:579 JLINK_ReadMem (0x08000F58, 0x003C Bytes, ...) -- CPU_ReadMem(64 bytes @ 0x08000F80) -- Updating C cache (64 bytes @ 0x08000F80) -- Read from C cache (60 bytes @ 0x08000F58) - Data: 70 47 00 20 01 E0 01 C1 12 1F 00 2A FB D1 70 47 ...  returns 0x00 (0003ms, 2575ms total)
T2110 007:433 JLINK_Step() -- Read from C cache (2 bytes @ 0x08000F68) -- CPU_ReadMem(4 bytes @ 0xE000ED18) -- CPU_WriteMem(4 bytes @ 0xE000ED18) -- CPU_ReadMem(4 bytes @ 0xE000ED18) -- CPU_WriteMem(4 bytes @ 0xE000ED18) -- Simulated  returns 0x00 (0016ms, 2591ms total)
T2110 007:449 JLINK_ReadReg(R15 (PC))  returns 0x08000F6A (0000ms, 2591ms total)
T2110 007:449 JLINK_ReadReg(XPSR)  returns 0x61000000 (0000ms, 2591ms total)
T2110 007:449 JLINK_Step() -- Read from C cache (2 bytes @ 0x08000F6A) -- CPU_ReadMem(64 bytes @ 0x08001000) -- Updating C cache (64 bytes @ 0x08001000) -- Read from C cache (4 bytes @ 0x08001030) -- Simulated  returns 0x00 (0004ms, 2595ms total)
T2110 007:453 JLINK_ReadReg(R15 (PC))  returns 0x08000F6C (0000ms, 2595ms total)
T2110 007:453 JLINK_ReadReg(XPSR)  returns 0x61000000 (0000ms, 2595ms total)
T2110 007:453 JLINK_Step() -- Read from C cache (2 bytes @ 0x08000F6C) -- Read from C cache (4 bytes @ 0x0800102C) -- Simulated  returns 0x00 (0000ms, 2595ms total)
T2110 007:453 JLINK_ReadReg(R15 (PC))  returns 0x08000F6E (0000ms, 2595ms total)
T2110 007:453 JLINK_ReadReg(XPSR)  returns 0x61000000 (0000ms, 2595ms total)
T2110 007:453 JLINK_Step() -- Read from C cache (2 bytes @ 0x08000F6E) -- Not simulated -- CPU_WriteMem(4 bytes @ 0xE0002008) -- CPU_WriteMem(4 bytes @ 0xE0001004)  returns 0x00 (0019ms, 2614ms total)
T2110 007:472 JLINK_ReadReg(R15 (PC))  returns 0x08000F70 (0000ms, 2614ms total)
T2110 007:472 JLINK_ReadReg(XPSR)  returns 0x61000000 (0000ms, 2614ms total)
T2110 007:473 JLINK_ReadReg(R0)  returns 0x08020000 (0000ms, 2614ms total)
T2110 007:473 JLINK_ReadReg(R1)  returns 0xE000ED08 (0000ms, 2614ms total)
T2110 007:473 JLINK_ReadReg(R2)  returns 0x00000000 (0000ms, 2614ms total)
T2110 007:473 JLINK_ReadReg(R3)  returns 0x08000F5B (0000ms, 2614ms total)
T2110 007:473 JLINK_ReadReg(R4)  returns 0x00000000 (0000ms, 2614ms total)
T2110 007:473 JLINK_ReadReg(R5)  returns 0x0800106C (0000ms, 2614ms total)
T2110 007:473 JLINK_ReadReg(R6)  returns 0x00000000 (0000ms, 2614ms total)
T2110 007:473 JLINK_ReadReg(R7)  returns 0x00000000 (0000ms, 2614ms total)
T2110 007:473 JLINK_ReadReg(R8)  returns 0x00000000 (0000ms, 2614ms total)
T2110 007:473 JLINK_ReadReg(R9)  returns 0x00000000 (0000ms, 2614ms total)
T2110 007:473 JLINK_ReadReg(R10)  returns 0x00000000 (0000ms, 2614ms total)
T2110 007:473 JLINK_ReadReg(R11)  returns 0x00000000 (0000ms, 2614ms total)
T2110 007:473 JLINK_ReadReg(R12)  returns 0x00000000 (0000ms, 2614ms total)
T2110 007:473 JLINK_ReadReg(R13 (SP))  returns 0x20001008 (0000ms, 2614ms total)
T2110 007:473 JLINK_ReadReg(R14)  returns 0x080001DD (0000ms, 2614ms total)
T2110 007:473 JLINK_ReadReg(R15 (PC))  returns 0x08000F70 (0000ms, 2614ms total)
T2110 007:473 JLINK_ReadReg(XPSR)  returns 0x61000000 (0000ms, 2614ms total)
T2110 007:473 JLINK_ReadReg(MSP)  returns 0x20001008 (0000ms, 2614ms total)
T2110 007:473 JLINK_ReadReg(PSP)  returns 0x00000000 (0000ms, 2614ms total)
T2110 007:473 JLINK_ReadReg(CFBP)  returns 0x00000000 (0000ms, 2614ms total)
T2110 007:473 JLINK_ReadReg(FPSCR)  returns 0x00000000 (0006ms, 2620ms total)
T2110 007:479 JLINK_ReadReg(FPS0)  returns 0x00000000 (0000ms, 2620ms total)
T2110 007:479 JLINK_ReadReg(FPS1)  returns 0x00000000 (0000ms, 2620ms total)
T2110 007:479 JLINK_ReadReg(FPS2)  returns 0x00000000 (0000ms, 2620ms total)
T2110 007:479 JLINK_ReadReg(FPS3)  returns 0x00000000 (0000ms, 2620ms total)
T2110 007:479 JLINK_ReadReg(FPS4)  returns 0x00000000 (0000ms, 2620ms total)
T2110 007:479 JLINK_ReadReg(FPS5)  returns 0x00000000 (0000ms, 2620ms total)
T2110 007:479 JLINK_ReadReg(FPS6)  returns 0x00000000 (0000ms, 2620ms total)
T2110 007:479 JLINK_ReadReg(FPS7)  returns 0x00000000 (0000ms, 2620ms total)
T2110 007:479 JLINK_ReadReg(FPS8)  returns 0x00000000 (0000ms, 2620ms total)
T2110 007:479 JLINK_ReadReg(FPS9)  returns 0x00000000 (0000ms, 2620ms total)
T2110 007:479 JLINK_ReadReg(FPS10)  returns 0x00000000 (0000ms, 2620ms total)
T2110 007:479 JLINK_ReadReg(FPS11)  returns 0x00000000 (0000ms, 2620ms total)
T2110 007:479 JLINK_ReadReg(FPS12)  returns 0x00000000 (0000ms, 2620ms total)
T2110 007:479 JLINK_ReadReg(FPS13)  returns 0x00000000 (0000ms, 2620ms total)
T2110 007:479 JLINK_ReadReg(FPS14)  returns 0x00000000 (0000ms, 2620ms total)
T2110 007:479 JLINK_ReadReg(FPS15)  returns 0x00000000 (0000ms, 2620ms total)
T2110 007:479 JLINK_ReadReg(FPS16)  returns 0x00000000 (0001ms, 2621ms total)
T2110 007:480 JLINK_ReadReg(FPS17)  returns 0x00000000 (0000ms, 2621ms total)
T2110 007:480 JLINK_ReadReg(FPS18)  returns 0x00000000 (0000ms, 2621ms total)
T2110 007:480 JLINK_ReadReg(FPS19)  returns 0x00000000 (0000ms, 2621ms total)
T2110 007:480 JLINK_ReadReg(FPS20)  returns 0x00000000 (0000ms, 2621ms total)
T2110 007:480 JLINK_ReadReg(FPS21)  returns 0x00000000 (0000ms, 2621ms total)
T2110 007:480 JLINK_ReadReg(FPS22)  returns 0x00000000 (0000ms, 2621ms total)
T2110 007:480 JLINK_ReadReg(FPS23)  returns 0x00000000 (0000ms, 2621ms total)
T2110 007:480 JLINK_ReadReg(FPS24)  returns 0x00000000 (0000ms, 2621ms total)
T2110 007:480 JLINK_ReadReg(FPS25)  returns 0x00000000 (0000ms, 2621ms total)
T2110 007:480 JLINK_ReadReg(FPS26)  returns 0x00000000 (0000ms, 2621ms total)
T2110 007:480 JLINK_ReadReg(FPS27)  returns 0x00000000 (0000ms, 2621ms total)
T2110 007:480 JLINK_ReadReg(FPS28)  returns 0x00000000 (0000ms, 2621ms total)
T2110 007:480 JLINK_ReadReg(FPS29)  returns 0x00000000 (0000ms, 2621ms total)
T2110 007:480 JLINK_ReadReg(FPS30)  returns 0x00000000 (0000ms, 2621ms total)
T2110 007:480 JLINK_ReadReg(FPS31)  returns 0x00000000 (0000ms, 2621ms total)
T34C0 007:480 JLINK_ReadMemU32(0xE0001004, 0x0001 Items, ...) -- CPU_ReadMem(4 bytes @ 0xE0001004) - Data: 8E 18 00 00  returns 0x01 (0004ms, 2625ms total)
T34C0 007:487 JLINK_ReadMem (0x08000F6A, 0x0002 Bytes, ...) -- CPU_ReadMem(64 bytes @ 0x08000F40) -- Updating C cache (64 bytes @ 0x08000F40) -- Read from C cache (2 bytes @ 0x08000F6A) - Data: 31 49  returns 0x00 (0004ms, 2629ms total)
T34C0 007:491 JLINK_ReadMem (0x08000F6C, 0x003C Bytes, ...) -- CPU_ReadMem(64 bytes @ 0x08000F80) -- Updating C cache (64 bytes @ 0x08000F80) -- Read from C cache (60 bytes @ 0x08000F6C) - Data: 2F 48 08 60 FF F7 72 FA FF F7 6E FF FF F7 B6 FE ...  returns 0x00 (0003ms, 2632ms total)
T2110 008:118 JLINK_SetBPEx(Addr = 0x08000F74, Type = 0xFFFFFFF2)  returns 0x00000002 (0000ms, 2632ms total)
T2110 008:118 JLINK_Go() -- CPU_WriteMem(4 bytes @ 0xE0002000) -- CPU_ReadMem(4 bytes @ 0xE0001000) -- CPU_WriteMem(4 bytes @ 0xE0002008) (0017ms, 2649ms total)
T2110 008:236 JLINK_IsHalted()  returns TRUE (0014ms, 2663ms total)
T2110 008:250 JLINK_Halt()  returns 0x00 (0000ms, 2649ms total)
T2110 008:250 JLINK_IsHalted()  returns TRUE (0000ms, 2649ms total)
T2110 008:250 JLINK_IsHalted()  returns TRUE (0000ms, 2649ms total)
T2110 008:250 JLINK_IsHalted()  returns TRUE (0000ms, 2649ms total)
T2110 008:250 JLINK_ReadReg(R15 (PC))  returns 0x08000F74 (0000ms, 2649ms total)
T2110 008:250 JLINK_ReadReg(XPSR)  returns 0x41000000 (0000ms, 2649ms total)
T2110 008:250 JLINK_ClrBPEx(BPHandle = 0x00000002)  returns 0x00 (0000ms, 2649ms total)
T2110 008:250 JLINK_ReadMemU32(0xE000ED30, 0x0001 Items, ...) -- CPU_ReadMem(4 bytes @ 0xE000ED30) - Data: 02 00 00 00  returns 0x01 (0003ms, 2652ms total)
T2110 008:253 JLINK_ReadMemU32(0xE0001028, 0x0001 Items, ...) -- CPU_ReadMem(4 bytes @ 0xE0001028) - Data: 00 00 00 00  returns 0x01 (0003ms, 2655ms total)
T2110 008:256 JLINK_ReadMemU32(0xE0001038, 0x0001 Items, ...) -- CPU_ReadMem(4 bytes @ 0xE0001038) - Data: 00 02 00 00  returns 0x01 (0004ms, 2659ms total)
T2110 008:260 JLINK_ReadMemU32(0xE0001048, 0x0001 Items, ...) -- CPU_ReadMem(4 bytes @ 0xE0001048) - Data: 00 00 00 00  returns 0x01 (0003ms, 2662ms total)
T2110 008:263 JLINK_ReadMemU32(0xE0001058, 0x0001 Items, ...) -- CPU_ReadMem(4 bytes @ 0xE0001058) - Data: 00 00 00 00  returns 0x01 (0003ms, 2665ms total)
T2110 008:266 JLINK_ReadReg(R0)  returns 0x00000000 (0000ms, 2665ms total)
T2110 008:266 JLINK_ReadReg(R1)  returns 0x00000020 (0000ms, 2665ms total)
T2110 008:266 JLINK_ReadReg(R2)  returns 0x00000001 (0000ms, 2665ms total)
T2110 008:266 JLINK_ReadReg(R3)  returns 0x00000000 (0000ms, 2665ms total)
T2110 008:266 JLINK_ReadReg(R4)  returns 0x00000000 (0000ms, 2665ms total)
T2110 008:266 JLINK_ReadReg(R5)  returns 0x0800106C (0000ms, 2665ms total)
T2110 008:266 JLINK_ReadReg(R6)  returns 0x00000000 (0000ms, 2665ms total)
T2110 008:266 JLINK_ReadReg(R7)  returns 0x00000000 (0000ms, 2665ms total)
T2110 008:266 JLINK_ReadReg(R8)  returns 0x00000000 (0000ms, 2665ms total)
T2110 008:266 JLINK_ReadReg(R9)  returns 0x00000000 (0000ms, 2665ms total)
T2110 008:266 JLINK_ReadReg(R10)  returns 0x00000000 (0000ms, 2665ms total)
T2110 008:266 JLINK_ReadReg(R11)  returns 0x00000000 (0000ms, 2665ms total)
T2110 008:266 JLINK_ReadReg(R12)  returns 0x0000000F (0000ms, 2665ms total)
T2110 008:266 JLINK_ReadReg(R13 (SP))  returns 0x20001008 (0000ms, 2665ms total)
T2110 008:266 JLINK_ReadReg(R14)  returns 0x08000485 (0000ms, 2665ms total)
T2110 008:266 JLINK_ReadReg(R15 (PC))  returns 0x08000F74 (0000ms, 2665ms total)
T2110 008:266 JLINK_ReadReg(XPSR)  returns 0x41000000 (0000ms, 2665ms total)
T2110 008:266 JLINK_ReadReg(MSP)  returns 0x20001008 (0000ms, 2665ms total)
T2110 008:266 JLINK_ReadReg(PSP)  returns 0x00000000 (0000ms, 2665ms total)
T2110 008:266 JLINK_ReadReg(CFBP)  returns 0x00000000 (0000ms, 2665ms total)
T2110 008:266 JLINK_ReadReg(FPSCR)  returns 0x00000000 (0008ms, 2673ms total)
T2110 008:274 JLINK_ReadReg(FPS0)  returns 0x00000000 (0000ms, 2673ms total)
T2110 008:274 JLINK_ReadReg(FPS1)  returns 0x00000000 (0000ms, 2673ms total)
T2110 008:274 JLINK_ReadReg(FPS2)  returns 0x00000000 (0000ms, 2673ms total)
T2110 008:274 JLINK_ReadReg(FPS3)  returns 0x00000000 (0000ms, 2673ms total)
T2110 008:274 JLINK_ReadReg(FPS4)  returns 0x00000000 (0000ms, 2673ms total)
T2110 008:274 JLINK_ReadReg(FPS5)  returns 0x00000000 (0000ms, 2673ms total)
T2110 008:274 JLINK_ReadReg(FPS6)  returns 0x00000000 (0000ms, 2673ms total)
T2110 008:274 JLINK_ReadReg(FPS7)  returns 0x00000000 (0000ms, 2673ms total)
T2110 008:274 JLINK_ReadReg(FPS8)  returns 0x00000000 (0000ms, 2673ms total)
T2110 008:274 JLINK_ReadReg(FPS9)  returns 0x00000000 (0000ms, 2673ms total)
T2110 008:274 JLINK_ReadReg(FPS10)  returns 0x00000000 (0000ms, 2673ms total)
T2110 008:274 JLINK_ReadReg(FPS11)  returns 0x00000000 (0000ms, 2673ms total)
T2110 008:274 JLINK_ReadReg(FPS12)  returns 0x00000000 (0000ms, 2673ms total)
T2110 008:274 JLINK_ReadReg(FPS13)  returns 0x00000000 (0000ms, 2673ms total)
T2110 008:274 JLINK_ReadReg(FPS14)  returns 0x00000000 (0000ms, 2673ms total)
T2110 008:274 JLINK_ReadReg(FPS15)  returns 0x00000000 (0000ms, 2673ms total)
T2110 008:274 JLINK_ReadReg(FPS16)  returns 0x00000000 (0000ms, 2673ms total)
T2110 008:274 JLINK_ReadReg(FPS17)  returns 0x00000000 (0000ms, 2673ms total)
T2110 008:274 JLINK_ReadReg(FPS18)  returns 0x00000000 (0000ms, 2673ms total)
T2110 008:274 JLINK_ReadReg(FPS19)  returns 0x00000000 (0000ms, 2673ms total)
T2110 008:274 JLINK_ReadReg(FPS20)  returns 0x00000000 (0000ms, 2673ms total)
T2110 008:274 JLINK_ReadReg(FPS21)  returns 0x00000000 (0000ms, 2673ms total)
T2110 008:274 JLINK_ReadReg(FPS22)  returns 0x00000000 (0000ms, 2673ms total)
T2110 008:274 JLINK_ReadReg(FPS23)  returns 0x00000000 (0000ms, 2673ms total)
T2110 008:274 JLINK_ReadReg(FPS24)  returns 0x00000000 (0000ms, 2673ms total)
T2110 008:274 JLINK_ReadReg(FPS25)  returns 0x00000000 (0000ms, 2673ms total)
T2110 008:274 JLINK_ReadReg(FPS26)  returns 0x00000000 (0000ms, 2673ms total)
T2110 008:274 JLINK_ReadReg(FPS27)  returns 0x00000000 (0000ms, 2673ms total)
T2110 008:274 JLINK_ReadReg(FPS28)  returns 0x00000000 (0000ms, 2673ms total)
T2110 008:274 JLINK_ReadReg(FPS29)  returns 0x00000000 (0000ms, 2673ms total)
T2110 008:274 JLINK_ReadReg(FPS30)  returns 0x00000000 (0000ms, 2673ms total)
T2110 008:274 JLINK_ReadReg(FPS31)  returns 0x00000000 (0000ms, 2673ms total)
T34C0 008:274 JLINK_ReadMemU32(0xE0001004, 0x0001 Items, ...) -- CPU_ReadMem(4 bytes @ 0xE0001004) - Data: 92 1A 00 00  returns 0x01 (0004ms, 2677ms total)
T34C0 008:281 JLINK_ReadMem (0x08000F70, 0x003C Bytes, ...) -- CPU_ReadMem(128 bytes @ 0x08000F40) -- Updating C cache (128 bytes @ 0x08000F40) -- Read from C cache (60 bytes @ 0x08000F70) - Data: FF F7 72 FA FF F7 6E FF FF F7 B6 FE 2D 4D 2E 4E ...  returns 0x00 (0003ms, 2680ms total)
T2110 009:084 JLINK_SetBPEx(Addr = 0x08000F78, Type = 0xFFFFFFF2)  returns 0x00000003 (0000ms, 2680ms total)
T2110 009:084 JLINK_Go() -- CPU_WriteMem(4 bytes @ 0xE0002000) -- CPU_ReadMem(4 bytes @ 0xE0001000) -- CPU_WriteMem(4 bytes @ 0xE0002008) (0017ms, 2697ms total)
T2110 009:202 JLINK_IsHalted()  returns TRUE (0010ms, 2707ms total)
T2110 009:212 JLINK_Halt()  returns 0x00 (0000ms, 2697ms total)
T2110 009:212 JLINK_IsHalted()  returns TRUE (0000ms, 2697ms total)
T2110 009:212 JLINK_IsHalted()  returns TRUE (0000ms, 2697ms total)
T2110 009:212 JLINK_IsHalted()  returns TRUE (0000ms, 2697ms total)
T2110 009:213 JLINK_ReadReg(R15 (PC))  returns 0x08000F78 (0000ms, 2697ms total)
T2110 009:213 JLINK_ReadReg(XPSR)  returns 0x41000000 (0000ms, 2697ms total)
T2110 009:213 JLINK_ClrBPEx(BPHandle = 0x00000003)  returns 0x00 (0000ms, 2697ms total)
T2110 009:213 JLINK_ReadMemU32(0xE000ED30, 0x0001 Items, ...) -- CPU_ReadMem(4 bytes @ 0xE000ED30) - Data: 02 00 00 00  returns 0x01 (0003ms, 2700ms total)
T2110 009:216 JLINK_ReadMemU32(0xE0001028, 0x0001 Items, ...) -- CPU_ReadMem(4 bytes @ 0xE0001028) - Data: 00 00 00 00  returns 0x01 (0004ms, 2704ms total)
T2110 009:220 JLINK_ReadMemU32(0xE0001038, 0x0001 Items, ...) -- CPU_ReadMem(4 bytes @ 0xE0001038) - Data: 00 02 00 00  returns 0x01 (0004ms, 2708ms total)
T2110 009:224 JLINK_ReadMemU32(0xE0001048, 0x0001 Items, ...) -- CPU_ReadMem(4 bytes @ 0xE0001048) - Data: 00 00 00 00  returns 0x01 (0003ms, 2711ms total)
T2110 009:227 JLINK_ReadMemU32(0xE0001058, 0x0001 Items, ...) -- CPU_ReadMem(4 bytes @ 0xE0001058) - Data: 00 00 00 00  returns 0x01 (0003ms, 2714ms total)
T2110 009:230 JLINK_ReadReg(R0)  returns 0xE000E00F (0001ms, 2715ms total)
T2110 009:231 JLINK_ReadReg(R1)  returns 0x00000000 (0000ms, 2715ms total)
T2110 009:231 JLINK_ReadReg(R2)  returns 0x00000000 (0000ms, 2715ms total)
T2110 009:231 JLINK_ReadReg(R3)  returns 0x00000000 (0000ms, 2715ms total)
T2110 009:231 JLINK_ReadReg(R4)  returns 0x00000000 (0000ms, 2715ms total)
T2110 009:231 JLINK_ReadReg(R5)  returns 0x0800106C (0000ms, 2715ms total)
T2110 009:231 JLINK_ReadReg(R6)  returns 0x00000000 (0000ms, 2715ms total)
T2110 009:231 JLINK_ReadReg(R7)  returns 0x00000000 (0000ms, 2715ms total)
T2110 009:231 JLINK_ReadReg(R8)  returns 0x00000000 (0000ms, 2715ms total)
T2110 009:231 JLINK_ReadReg(R9)  returns 0x00000000 (0000ms, 2715ms total)
T2110 009:231 JLINK_ReadReg(R10)  returns 0x00000000 (0000ms, 2715ms total)
T2110 009:231 JLINK_ReadReg(R11)  returns 0x00000000 (0000ms, 2715ms total)
T2110 009:231 JLINK_ReadReg(R12)  returns 0x0000000F (0000ms, 2715ms total)
T2110 009:231 JLINK_ReadReg(R13 (SP))  returns 0x20001008 (0000ms, 2715ms total)
T2110 009:231 JLINK_ReadReg(R14)  returns 0x08000EE3 (0000ms, 2715ms total)
T2110 009:231 JLINK_ReadReg(R15 (PC))  returns 0x08000F78 (0000ms, 2715ms total)
T2110 009:231 JLINK_ReadReg(XPSR)  returns 0x41000000 (0000ms, 2715ms total)
T2110 009:231 JLINK_ReadReg(MSP)  returns 0x20001008 (0000ms, 2715ms total)
T2110 009:231 JLINK_ReadReg(PSP)  returns 0x00000000 (0000ms, 2715ms total)
T2110 009:231 JLINK_ReadReg(CFBP)  returns 0x00000000 (0000ms, 2715ms total)
T2110 009:231 JLINK_ReadReg(FPSCR)  returns 0x00000000 (0007ms, 2722ms total)
T2110 009:238 JLINK_ReadReg(FPS0)  returns 0x00000000 (0000ms, 2722ms total)
T2110 009:238 JLINK_ReadReg(FPS1)  returns 0x00000000 (0000ms, 2722ms total)
T2110 009:238 JLINK_ReadReg(FPS2)  returns 0x00000000 (0000ms, 2722ms total)
T2110 009:238 JLINK_ReadReg(FPS3)  returns 0x00000000 (0000ms, 2722ms total)
T2110 009:238 JLINK_ReadReg(FPS4)  returns 0x00000000 (0000ms, 2722ms total)
T2110 009:238 JLINK_ReadReg(FPS5)  returns 0x00000000 (0000ms, 2722ms total)
T2110 009:238 JLINK_ReadReg(FPS6)  returns 0x00000000 (0000ms, 2722ms total)
T2110 009:238 JLINK_ReadReg(FPS7)  returns 0x00000000 (0000ms, 2722ms total)
T2110 009:238 JLINK_ReadReg(FPS8)  returns 0x00000000 (0000ms, 2722ms total)
T2110 009:238 JLINK_ReadReg(FPS9)  returns 0x00000000 (0000ms, 2722ms total)
T2110 009:238 JLINK_ReadReg(FPS10)  returns 0x00000000 (0000ms, 2722ms total)
T2110 009:238 JLINK_ReadReg(FPS11)  returns 0x00000000 (0000ms, 2722ms total)
T2110 009:238 JLINK_ReadReg(FPS12)  returns 0x00000000 (0000ms, 2722ms total)
T2110 009:238 JLINK_ReadReg(FPS13)  returns 0x00000000 (0000ms, 2722ms total)
T2110 009:238 JLINK_ReadReg(FPS14)  returns 0x00000000 (0000ms, 2722ms total)
T2110 009:238 JLINK_ReadReg(FPS15)  returns 0x00000000 (0000ms, 2722ms total)
T2110 009:238 JLINK_ReadReg(FPS16)  returns 0x00000000 (0000ms, 2722ms total)
T2110 009:239 JLINK_ReadReg(FPS17)  returns 0x00000000 (0000ms, 2722ms total)
T2110 009:239 JLINK_ReadReg(FPS18)  returns 0x00000000 (0000ms, 2722ms total)
T2110 009:239 JLINK_ReadReg(FPS19)  returns 0x00000000 (0000ms, 2722ms total)
T2110 009:239 JLINK_ReadReg(FPS20)  returns 0x00000000 (0000ms, 2722ms total)
T2110 009:239 JLINK_ReadReg(FPS21)  returns 0x00000000 (0000ms, 2722ms total)
T2110 009:239 JLINK_ReadReg(FPS22)  returns 0x00000000 (0000ms, 2722ms total)
T2110 009:239 JLINK_ReadReg(FPS23)  returns 0x00000000 (0000ms, 2722ms total)
T2110 009:239 JLINK_ReadReg(FPS24)  returns 0x00000000 (0000ms, 2722ms total)
T2110 009:239 JLINK_ReadReg(FPS25)  returns 0x00000000 (0000ms, 2722ms total)
T2110 009:239 JLINK_ReadReg(FPS26)  returns 0x00000000 (0000ms, 2722ms total)
T2110 009:239 JLINK_ReadReg(FPS27)  returns 0x00000000 (0000ms, 2722ms total)
T2110 009:239 JLINK_ReadReg(FPS28)  returns 0x00000000 (0000ms, 2722ms total)
T2110 009:239 JLINK_ReadReg(FPS29)  returns 0x00000000 (0000ms, 2722ms total)
T2110 009:239 JLINK_ReadReg(FPS30)  returns 0x00000000 (0000ms, 2722ms total)
T2110 009:239 JLINK_ReadReg(FPS31)  returns 0x00000000 (0000ms, 2722ms total)
T34C0 009:239 JLINK_ReadMemU32(0xE0001004, 0x0001 Items, ...) -- CPU_ReadMem(4 bytes @ 0xE0001004) - Data: E7 66 00 00  returns 0x01 (0004ms, 2726ms total)
T34C0 009:246 JLINK_ReadMem (0x08000F74, 0x003C Bytes, ...) -- CPU_ReadMem(128 bytes @ 0x08000F40) -- Updating C cache (128 bytes @ 0x08000F40) -- Read from C cache (60 bytes @ 0x08000F74) - Data: FF F7 6E FF FF F7 B6 FE 2D 4D 2E 4E 07 2C 48 D2 ...  returns 0x00 (0003ms, 2729ms total)
T2110 011:581 JLINK_Go() -- CPU_ReadMem(4 bytes @ 0xE0001000) -- CPU_WriteMem(4 bytes @ 0xE0002008) (0014ms, 2743ms total)
T2110 011:696 JLINK_IsHalted()  returns FALSE (0010ms, 2753ms total)
T2110 011:808 JLINK_IsHalted()  returns FALSE (0008ms, 2751ms total)
T2110 011:917 JLINK_IsHalted()  returns FALSE (0007ms, 2750ms total)
T2110 012:025 JLINK_IsHalted()  returns FALSE (0010ms, 2753ms total)
T2110 012:135 JLINK_ReadMemU32(0xE0001004, 0x0001 Items, ...) -- CPU is running -- CPU_ReadMem(4 bytes @ 0xE0001004) - Data: 25 32 6D 05  returns 0x01 (0003ms, 2746ms total)
T2110 012:138 JLINK_IsHalted()  returns FALSE (0004ms, 2750ms total)
T2110 012:242 JLINK_IsHalted()  returns FALSE (0001ms, 2747ms total)
T2110 012:344 JLINK_IsHalted()  returns FALSE (0009ms, 2755ms total)
T2110 012:453 JLINK_IsHalted()  returns FALSE (0011ms, 2757ms total)
T2110 012:565 JLINK_IsHalted()  returns FALSE (0008ms, 2754ms total)
T2110 012:673 JLINK_ReadMemU32(0xE0001004, 0x0001 Items, ...) -- CPU is running - Data: 25 32 6D 05  returns 0x01 (0000ms, 2746ms total)
T2110 012:673 JLINK_IsHalted()  returns FALSE (0009ms, 2755ms total)
T2110 012:782 JLINK_IsHalted()  returns FALSE (0009ms, 2755ms total)
T2110 012:892 JLINK_IsHalted()  returns FALSE (0009ms, 2755ms total)
T2110 013:002 JLINK_IsHalted()  returns FALSE (0010ms, 2756ms total)
T2110 013:112 JLINK_IsHalted()  returns FALSE (0008ms, 2754ms total)
T2110 013:221 JLINK_ReadMemU32(0xE0001004, 0x0001 Items, ...) -- CPU is running - Data: 25 32 6D 05  returns 0x01 (0000ms, 2746ms total)
T2110 013:221 JLINK_IsHalted()  returns FALSE (0003ms, 2749ms total)
T2110 013:324 JLINK_IsHalted()  returns FALSE (0009ms, 2755ms total)
T2110 013:434 JLINK_IsHalted()  returns FALSE (0010ms, 2756ms total)
T2110 013:545 JLINK_IsHalted()  returns FALSE (0006ms, 2752ms total)
T2110 013:652 JLINK_IsHalted()  returns FALSE (0010ms, 2756ms total)
T2110 013:762 JLINK_ReadMemU32(0xE0001004, 0x0001 Items, ...) -- CPU is running - Data: 25 32 6D 05  returns 0x01 (0000ms, 2746ms total)
T2110 013:762 JLINK_IsHalted()  returns FALSE (0008ms, 2754ms total)
T2110 013:871 JLINK_IsHalted()  returns FALSE (0010ms, 2756ms total)
T2110 013:982 JLINK_IsHalted()  returns FALSE (0008ms, 2754ms total)
T2110 014:090 JLINK_IsHalted()  returns FALSE (0009ms, 2755ms total)
T2110 014:200 JLINK_IsHalted()  returns FALSE (0007ms, 2753ms total)
T2110 014:308 JLINK_ReadMemU32(0xE0001004, 0x0001 Items, ...) -- CPU is running - Data: 25 32 6D 05  returns 0x01 (0000ms, 2746ms total)
T2110 014:308 JLINK_IsHalted()  returns FALSE (0004ms, 2750ms total)
T2110 014:412 JLINK_IsHalted()  returns FALSE (0010ms, 2756ms total)
T2110 014:523 JLINK_IsHalted()  returns FALSE (0009ms, 2755ms total)
T2110 014:634 JLINK_IsHalted()  returns FALSE (0008ms, 2754ms total)
T2110 014:743 JLINK_IsHalted()  returns FALSE (0008ms, 2754ms total)
T2110 014:852 JLINK_ReadMemU32(0xE0001004, 0x0001 Items, ...) -- CPU is running - Data: 25 32 6D 05  returns 0x01 (0000ms, 2746ms total)
T2110 014:852 JLINK_IsHalted()  returns FALSE (0010ms, 2756ms total)
T2110 014:963 JLINK_IsHalted()  returns FALSE (0009ms, 2755ms total)
T2110 015:073 JLINK_IsHalted()  returns FALSE (0002ms, 2748ms total)
T2110 015:176 JLINK_IsHalted()  returns FALSE (0008ms, 2754ms total)
T2110 015:285 JLINK_IsHalted()  returns FALSE (0009ms, 2755ms total)
T2110 015:394 JLINK_ReadMemU32(0xE0001004, 0x0001 Items, ...) -- CPU is running - Data: 25 32 6D 05  returns 0x01 (0000ms, 2746ms total)
T2110 015:394 JLINK_IsHalted()  returns FALSE (0003ms, 2749ms total)
T2110 015:498 JLINK_IsHalted()  returns FALSE (0009ms, 2755ms total)
T2110 015:607 JLINK_IsHalted()  returns FALSE (0010ms, 2756ms total)
T2110 015:718 JLINK_IsHalted()  returns FALSE (0009ms, 2755ms total)
T2110 015:828 JLINK_IsHalted()  returns FALSE (0009ms, 2755ms total)
T2110 015:938 JLINK_ReadMemU32(0xE0001004, 0x0001 Items, ...) -- CPU is running - Data: 25 32 6D 05  returns 0x01 (0000ms, 2746ms total)
T2110 015:938 JLINK_IsHalted()  returns FALSE (0008ms, 2754ms total)
T2110 016:047 JLINK_IsHalted()  returns FALSE (0009ms, 2755ms total)
T2110 016:157 JLINK_IsHalted()  returns FALSE (0007ms, 2753ms total)
T2110 016:265 JLINK_IsHalted()  returns FALSE (0010ms, 2756ms total)
T2110 016:376 JLINK_IsHalted()  returns FALSE (0003ms, 2749ms total)
T2110 016:479 JLINK_ReadMemU32(0xE0001004, 0x0001 Items, ...) -- CPU is running - Data: 25 32 6D 05  returns 0x01 (0000ms, 2746ms total)
T2110 016:479 JLINK_IsHalted()  returns FALSE (0009ms, 2755ms total)
T2110 016:589 JLINK_IsHalted()  returns FALSE (0009ms, 2755ms total)
T2110 016:699 JLINK_IsHalted()  returns FALSE (0009ms, 2755ms total)
T2110 016:809 JLINK_IsHalted()  returns FALSE (0007ms, 2753ms total)
T2110 016:917 JLINK_IsHalted()  returns FALSE (0010ms, 2756ms total)
T2110 017:028 JLINK_ReadMemU32(0xE0001004, 0x0001 Items, ...) -- CPU is running - Data: 25 32 6D 05  returns 0x01 (0000ms, 2746ms total)
T2110 017:028 JLINK_IsHalted()  returns FALSE (0008ms, 2754ms total)
T2110 017:137 JLINK_IsHalted()  returns FALSE (0007ms, 2753ms total)
T2110 017:245 JLINK_IsHalted()  returns FALSE (0016ms, 2762ms total)
T2110 017:361 JLINK_IsHalted()  returns FALSE (0009ms, 2755ms total)
T2110 017:471 JLINK_IsHalted()  returns FALSE (0004ms, 2750ms total)
T2110 017:575 JLINK_ReadMemU32(0xE0001004, 0x0001 Items, ...) -- CPU is running - Data: 25 32 6D 05  returns 0x01 (0000ms, 2746ms total)
T2110 017:575 JLINK_IsHalted()  returns FALSE (0008ms, 2754ms total)
T2110 017:684 JLINK_IsHalted()  returns FALSE (0009ms, 2755ms total)
T2110 017:794 JLINK_IsHalted()  returns FALSE (0009ms, 2755ms total)
T2110 017:903 JLINK_IsHalted()  returns FALSE (0010ms, 2756ms total)
T2110 018:014 JLINK_IsHalted()  returns FALSE (0008ms, 2754ms total)
T2110 018:123 JLINK_ReadMemU32(0xE0001004, 0x0001 Items, ...) -- CPU is running - Data: 25 32 6D 05  returns 0x01 (0000ms, 2746ms total)
T2110 018:123 JLINK_IsHalted()  returns FALSE (0002ms, 2748ms total)
T2110 018:226 JLINK_IsHalted()  returns FALSE (0008ms, 2754ms total)
T2110 018:335 JLINK_IsHalted()  returns FALSE (0010ms, 2756ms total)
T2110 018:445 JLINK_IsHalted()  returns FALSE (0004ms, 2750ms total)
T2110 018:550 JLINK_IsHalted()  returns FALSE (0009ms, 2755ms total)
T2110 018:659 JLINK_ReadMemU32(0xE0001004, 0x0001 Items, ...) -- CPU is running - Data: 25 32 6D 05  returns 0x01 (0000ms, 2746ms total)
T2110 018:659 JLINK_IsHalted()  returns FALSE (0009ms, 2755ms total)
T2110 018:769 JLINK_IsHalted()  returns FALSE (0008ms, 2754ms total)
T2110 018:877 JLINK_IsHalted()  returns FALSE (0004ms, 2750ms total)
T2110 018:982 JLINK_IsHalted()  returns FALSE (0001ms, 2747ms total)
T2110 019:084 JLINK_IsHalted()  returns FALSE (0003ms, 2749ms total)
T2110 019:188 JLINK_ReadMemU32(0xE0001004, 0x0001 Items, ...) -- CPU is running - Data: 25 32 6D 05  returns 0x01 (0000ms, 2746ms total)
T2110 019:188 JLINK_IsHalted()  returns FALSE (0003ms, 2749ms total)
T2110 019:292 JLINK_IsHalted()  returns FALSE (0003ms, 2749ms total)
T2110 019:396 JLINK_IsHalted()  returns FALSE (0002ms, 2748ms total)
T2110 019:499 JLINK_IsHalted()  returns FALSE (0003ms, 2749ms total)
T2110 019:603 JLINK_IsHalted()  returns FALSE (0003ms, 2749ms total)
T2110 019:708 JLINK_ReadMemU32(0xE0001004, 0x0001 Items, ...) -- CPU is running - Data: 25 32 6D 05  returns 0x01 (0000ms, 2746ms total)
T2110 019:708 JLINK_IsHalted()  returns FALSE (0003ms, 2749ms total)
T2110 019:811 JLINK_IsHalted()  returns FALSE (0009ms, 2755ms total)
T2110 019:922 JLINK_IsHalted()  returns FALSE (0003ms, 2749ms total)
T2110 020:043 JLINK_IsHalted()  returns FALSE (0003ms, 2749ms total)
T2110 020:150 JLINK_IsHalted()  returns FALSE (0003ms, 2749ms total)
T2110 020:254 JLINK_ReadMemU32(0xE0001004, 0x0001 Items, ...) -- CPU is running - Data: 25 32 6D 05  returns 0x01 (0000ms, 2746ms total)
T2110 020:255 JLINK_IsHalted()  returns FALSE (0002ms, 2748ms total)
T2110 020:382 JLINK_IsHalted()  returns FALSE (0053ms, 2799ms total)
T2110 020:535 JLINK_IsHalted()  returns FALSE (0004ms, 2750ms total)
T2110 020:639 JLINK_IsHalted()  returns FALSE (0007ms, 2753ms total)
T2110 020:746 JLINK_IsHalted()  returns FALSE (0012ms, 2758ms total)
T2110 020:859 JLINK_ReadMemU32(0xE0001004, 0x0001 Items, ...) -- CPU is running - Data: 25 32 6D 05  returns 0x01 (0000ms, 2746ms total)
T2110 020:859 JLINK_IsHalted()  returns FALSE (0006ms, 2752ms total)
T2110 020:965 JLINK_IsHalted()  returns FALSE (0011ms, 2757ms total)
T2110 021:076 JLINK_IsHalted()  returns FALSE (0008ms, 2754ms total)
T2110 021:185 JLINK_IsHalted()  returns FALSE (0003ms, 2749ms total)
T2110 021:289 JLINK_IsHalted()  returns FALSE (0009ms, 2755ms total)
T2110 021:398 JLINK_ReadMemU32(0xE0001004, 0x0001 Items, ...) -- CPU is running - Data: 25 32 6D 05  returns 0x01 (0000ms, 2746ms total)
T2110 021:399 JLINK_IsHalted()  returns FALSE (0008ms, 2754ms total)
T2110 021:507 JLINK_IsHalted()  returns FALSE (0011ms, 2757ms total)
T2110 021:619 JLINK_IsHalted()  returns FALSE (0003ms, 2749ms total)
T2110 021:723 JLINK_IsHalted()  returns FALSE (0009ms, 2755ms total)
T2110 021:833 JLINK_IsHalted()  returns FALSE (0009ms, 2755ms total)
T2110 021:943 JLINK_ReadMemU32(0xE0001004, 0x0001 Items, ...) -- CPU is running - Data: 25 32 6D 05  returns 0x01 (0000ms, 2746ms total)
T2110 021:943 JLINK_IsHalted()  returns FALSE (0009ms, 2755ms total)
T2110 022:053 JLINK_IsHalted()  returns FALSE (0009ms, 2755ms total)
T2110 022:162 JLINK_IsHalted()  returns FALSE (0010ms, 2756ms total)
T2110 022:272 JLINK_IsHalted()  returns FALSE (0009ms, 2755ms total)
T2110 022:382 JLINK_IsHalted()  returns FALSE (0008ms, 2754ms total)
T2110 022:491 JLINK_ReadMemU32(0xE0001004, 0x0001 Items, ...) -- CPU is running - Data: 25 32 6D 05  returns 0x01 (0000ms, 2746ms total)
T2110 022:491 JLINK_IsHalted()  returns FALSE (0007ms, 2753ms total)
T2110 022:599 JLINK_IsHalted()  returns FALSE (0003ms, 2749ms total)
T2110 022:705 JLINK_IsHalted()  returns FALSE (0006ms, 2752ms total)
T2110 022:812 JLINK_IsHalted()  returns FALSE (0007ms, 2753ms total)
T2110 022:920 JLINK_IsHalted()  returns FALSE (0011ms, 2757ms total)
T2110 023:032 JLINK_ReadMemU32(0xE0001004, 0x0001 Items, ...) -- CPU is running - Data: 25 32 6D 05  returns 0x01 (0001ms, 2747ms total)
T2110 023:033 JLINK_IsHalted()  returns FALSE (0006ms, 2753ms total)
T2110 023:145 JLINK_IsHalted()  returns FALSE (0006ms, 2753ms total)
T2110 023:251 JLINK_IsHalted()  returns FALSE (0011ms, 2758ms total)
T2110 023:363 JLINK_IsHalted()  returns FALSE (0009ms, 2756ms total)
T2110 023:474 JLINK_IsHalted()  returns FALSE (0006ms, 2753ms total)
T2110 023:582 JLINK_ReadMemU32(0xE0001004, 0x0001 Items, ...) -- CPU is running - Data: 25 32 6D 05  returns 0x01 (0000ms, 2747ms total)
T2110 023:582 JLINK_IsHalted()  returns FALSE (0009ms, 2756ms total)
T2110 023:693 JLINK_IsHalted()  returns FALSE (0001ms, 2748ms total)
T2110 023:795 JLINK_IsHalted()  returns FALSE (0004ms, 2751ms total)
T2110 023:900 JLINK_IsHalted()  returns FALSE (0006ms, 2753ms total)
T2110 024:007 JLINK_IsHalted()  returns FALSE (0011ms, 2758ms total)
T2110 024:119 JLINK_ReadMemU32(0xE0001004, 0x0001 Items, ...) -- CPU is running - Data: 25 32 6D 05  returns 0x01 (0000ms, 2747ms total)
T2110 024:120 JLINK_IsHalted()  returns FALSE (0003ms, 2750ms total)
T2110 024:224 JLINK_IsHalted()  returns FALSE (0009ms, 2756ms total)
T2110 024:335 JLINK_IsHalted()  returns FALSE (0003ms, 2750ms total)
T2110 024:441 JLINK_IsHalted()  returns FALSE (0002ms, 2749ms total)
T2110 024:550 JLINK_IsHalted()  returns FALSE (0003ms, 2750ms total)
T2110 024:653 JLINK_ReadMemU32(0xE0001004, 0x0001 Items, ...) -- CPU is running - Data: 25 32 6D 05  returns 0x01 (0000ms, 2747ms total)
T2110 024:653 JLINK_IsHalted()  returns FALSE (0003ms, 2750ms total)
T2110 024:760 JLINK_IsHalted()  returns FALSE (0004ms, 2751ms total)
T2110 024:871 JLINK_IsHalted()  returns FALSE (0002ms, 2749ms total)
T2110 024:977 JLINK_IsHalted()  returns FALSE (0000ms, 2747ms total)
T2110 025:078 JLINK_IsHalted()  returns FALSE (0003ms, 2750ms total)
T2110 025:183 JLINK_ReadMemU32(0xE0001004, 0x0001 Items, ...) -- CPU is running - Data: 25 32 6D 05  returns 0x01 (0000ms, 2747ms total)
T2110 025:183 JLINK_IsHalted()  returns FALSE (0002ms, 2749ms total)
T2110 025:286 JLINK_IsHalted()  returns FALSE (0002ms, 2749ms total)
T2110 025:389 JLINK_IsHalted()  returns FALSE (0003ms, 2750ms total)
T2110 025:493 JLINK_IsHalted()  returns FALSE (0004ms, 2751ms total)
T2110 025:598 JLINK_IsHalted()  returns FALSE (0001ms, 2748ms total)
T2110 025:700 JLINK_ReadMemU32(0xE0001004, 0x0001 Items, ...) -- CPU is running - Data: 25 32 6D 05  returns 0x01 (0000ms, 2747ms total)
T2110 025:700 JLINK_IsHalted()  returns FALSE (0004ms, 2751ms total)
T2110 025:804 JLINK_IsHalted()  returns FALSE (0003ms, 2750ms total)
T2110 025:908 JLINK_IsHalted()  returns FALSE (0003ms, 2750ms total)
T2110 026:012 JLINK_IsHalted()  returns FALSE (0004ms, 2751ms total)
T2110 026:117 JLINK_IsHalted()  returns FALSE (0002ms, 2749ms total)
T2110 026:220 JLINK_ReadMemU32(0xE0001004, 0x0001 Items, ...) -- CPU is running - Data: 25 32 6D 05  returns 0x01 (0001ms, 2748ms total)
T2110 026:221 JLINK_IsHalted()  returns FALSE (0004ms, 2752ms total)
T2110 026:325 JLINK_IsHalted()  returns FALSE (0003ms, 2751ms total)
T2110 026:429 JLINK_IsHalted()  returns FALSE (0003ms, 2751ms total)
T2110 026:533 JLINK_IsHalted()  returns FALSE (0009ms, 2757ms total)
T2110 026:642 JLINK_IsHalted()  returns FALSE (0010ms, 2758ms total)
T2110 026:758 JLINK_ReadMemU32(0xE0001004, 0x0001 Items, ...) -- CPU is running - Data: 25 32 6D 05  returns 0x01 (0000ms, 2748ms total)
T2110 026:758 JLINK_IsHalted()  returns FALSE (0003ms, 2751ms total)
T2110 026:862 JLINK_IsHalted()  returns FALSE (0003ms, 2751ms total)
T2110 026:966 JLINK_IsHalted()  returns FALSE (0009ms, 2757ms total)
T2110 027:076 JLINK_IsHalted()  returns FALSE (0009ms, 2757ms total)
T2110 027:186 JLINK_IsHalted()  returns FALSE (0003ms, 2751ms total)
